 ****** HSPICE -- H-2013.03-SP2 64-BIT (Aug 26 2013) win64 ******               
  Copyright (C) 2013 Synopsys, Inc. All Rights Reserved.                        
  Unpublished-rights reserved under US copyright laws.
  This program is protected by law and is subject to the
  terms and conditions of the license agreement from Synopsys.
  Use of this program is your acceptance to be bound by the
  license agreement. HSPICE is the trademark of Synopsys, Inc.
  Input File: t and z.sp                                                        
  Command line options: -i t and z.sp -o t and z.lis
  lic:  
  lic: FLEXlm: v10.9.8 
  lic: USER:   Arezoo               HOSTNAME: DESKTOP-JJOUN9O 
  lic: HOSTID: "3052cbb984a1 2c56dca92490 3052cbb96417 3252cbb96417 3052cbb96417
 " PID:      13660 
  lic: Using FLEXlm license file: 
  lic: C:\synopsys\synopsys.dat 
  lic: Checkout 1 hspice 
  lic: License/Maintenance for hspice will expire on 31-dec-2019/2019.12 
  lic: NODE LOCKED license on hostid "3052cbb984a1 2c56dca92490 3052cbb96417 325
 2cbb96417 3052cbb9641
  lic:   
 Init: read install configuration file: C:\synopsys\Hspice_H-2013.03-SP2\meta.cfg
1****** HSPICE -- H-2013.03-SP2 64-BIT (Aug 26 2013) win64 ******               
 ******  
 t and z

  ******  circuit name directory
 circuit number to circuit name directory
   number circuitname                     definition         multiplier
        0 main circuit
  **info** (t and z.sp:46) DC voltage reset to initial transient source value              in source        0:vx                  new dc=  0.0000D+00

 **warning**  associated with encrypted block(s) were suppressed due to encrypted content

  
      
  **warning** PIVOT option setting is simplified, pivot = 13 is obsolete,
              automatically switch to pivot = 1.
 *****************************************************************
 ******  option summary
 ******
 runlvl  = 3         bypass  = 2         
  Opening plot unit= 79
 file=t and z.pa0

 no convergence with standard algorithm,  trying damped pseudo-transient

  *** initial damped pseudo transient completed. ***
  *** final try started ***
 **info** remove gshunt failed
  **info** try to load final result like nodeset

 **info** gmin ramping for pseudo-tran
 final try failed.

  *** final try succeeded *** 
1****** HSPICE -- H-2013.03-SP2 64-BIT (Aug 26 2013) win64 ******               
 ******  
 t and z

  ******  operating point information tnom=  25.000 temp=  25.000 *****
 ***** operating point status is all       simulation time is   0.000e+00
      node    =voltage        node    =voltage        node    =voltage

 +  0:k4      = 1.054e-06   0:m1      = 9.000e-01   0:m2      = 9.000e-01
 +  0:m3      = 9.000e-01   0:n1      = 4.751e-11   0:n2      = 9.000e-01
 +  0:n3      = 2.071e-02   0:n4      = 8.719e-01   0:n5      = 1.918e-03
 +  0:n9      = 9.000e-01   0:o1      = 0.000e+00   0:o2      = 0.000e+00
 +  0:o3      = 0.000e+00   0:o4      = 2.589e-02   0:o5      = 1.522e-02
 +  0:px      = 8.993e-01   0:py      = 8.993e-01   0:t       = 2.109e-06
 +  0:vdd     = 9.000e-01   0:vdd2    = 4.500e-01   0:x       = 0.000e+00
 +  0:x0      = 9.000e-01   0:x1      = 7.282e-04   0:y       = 0.000e+00
 +  0:y0      = 9.000e-01   0:y1      = 7.282e-04   0:z       = 5.130e-02


 **** voltage sources

 subckt                                                      
 element    0:vdd        0:vdd2       0:vx         0:vy      
  volts      9.000e-01    4.500e-01    0.000e+00    0.000e+00
  current   -1.628e-07   -9.672e-06    0.000e+00    0.000e+00
  power      1.465e-07    4.352e-06    0.000e+00    0.000e+00

     total voltage source power dissipation=  4.499e-06       watts


 ******  
 t and z

  ******  transient analysis tnom=  25.000 temp=  25.000 *****
 pow= 4.3264e-06  from= 0.0000e+00     to= 1.0000e-08

          ***** job concluded
1****** HSPICE -- H-2013.03-SP2 64-BIT (Aug 26 2013) win64 ******               
 ******  
 t and z

  ******  job statistics summary tnom=  25.000 temp=  25.000 *****

  ******  HSPICE Threads Information  ******

  Command Line Threads Count :     1
  Available CPU Count        :     4
  Actual Threads Count       :     1


  ******  Circuit Statistics  ******
  # nodes       =    1300 # elements   =    3017
  # resistors   =     564 # capacitors =    1365 # inductors   =       0
  # mutual_inds =       0 # vccs       =     376 # vcvs        =     614
  # cccs        =       0 # ccvs       =       0 # volt_srcs   =      98
  # curr_srcs   =       0 # diodes     =       0 # bjts        =       0
  # jfets       =       0 # mosfets    =       0 # U elements  =       0
  # T elements  =       0 # W elements =       0 # B elements  =       0
  # S elements  =       0 # P elements =       0 # va device   =       0
  # vector_srcs =       0 # N elements =       0


  ******  Runtime Statistics (seconds)  ******

  analysis           time    # points   tot. iter  conv.iter
  op point         100.64           1         573
  transient        177.96        1001        1797         372 rev=        15
  readin             0.11
  errchk             1.44
  setup              0.02
  output             0.00


           peak memory used         77.51 megabytes
           total cpu time          280.19 seconds
           total elapsed time      280.26 seconds
           job started at     12:29:47 03/08/2018
           job ended   at     12:34:27 03/08/2018


  lic: Release hspice token(s) 
 lic: total license checkout elapse time:        0.05(s)
